Note: can't find init file.

Circuit: amplificador ejercicio

Doing analysis at TEMP = 27.000000 and TNOM = 27.000000



No. of Data Rows : 36


No. of Data Rows : 1
	Node                                  Voltage
	----                                  -------
	----	-------
	V(4)                            2.519340e+000
	V(5)                            9.375289e+000
	V(3)                            3.172058e+000
	V(2)                            1.000000e-003
	V(1)                            2.000000e+001

	Source	Current
	------	-------

	vcc#branch                      -1.86296e-003
	v1#branch                       0.000000e+000

 BJT models (Bipolar Junction Transistor)
      model                2n2222

       type                   npn
         is              1.9e-014
         bf                   150
         nf                     1
        vaf                   100
        ikf                  0.18
        ise                5e-011
         ne                   2.5
         br                   7.5
         nr                     1
        var                   6.4
        ikr                 0.012
        isc              8.7e-012
         nc                   1.2
         rb                    50
        irb                     0
        rbm                    50
         re                   0.4
         rc                   0.3
        cje              2.6e-011
        vje                  0.75
        mje                  0.33
         tf                5e-010
        xtf                     0
        vtf                     0
        itf                     0
        ptf                     0
        cjc              1.1e-011
        vjc                  0.75
        mjc                  0.33
       xcjc                     1
         tr                7e-009
        cjs                     0
        ccs                     0
        vjs                  0.75
        mjs                     0
        xtb                   1.5
         eg                  1.11
        xti                     3
         fc                   0.5
       tnom                    27
         kf              3.2e-017
         af                     1

 Capacitor models (Fixed capacitor)
      model                     C

        cap                     0
         cj                     0
       cjsw                     0
       defw                1e-005
       defl                     0
     narrow                     0
      short                     0
        tc1                     0
        tc2                     0
         di                     0
      thick                     0

 Resistor models (Simple linear resistor)
      model                     R

        rsh                     0
     narrow                     0
      short                     0
        tc1                     0
        tc2                     0
       defw                1e-005
         kf                     0
         af                     0

 BJT: Bipolar Junction Transistor
     device                    q1
      model                2n2222
         ic            0.00157201
         ib          1.22008e-005
         ie           -0.00158422
        vbe              0.651482
        vbc              -6.20337
         gm             0.0599645
        gpi            0.00044418
        gmu                1e-012
         gx                  0.02
         go          1.63711e-005
        cpi          7.06245e-011
        cmu          5.27519e-012
        cbx                     0
        ccs                     0

 Capacitor: Fixed capacitor
     device                    c1
      model                     C
capacitance                3e-007
        cap                3e-007
          c                3e-007
      dtemp                     0
          i                     0
          p                     0

 Resistor: Simple linear resistor
     device                    re                    rc                    r2
      model                     R                     R                     R
 resistance                  1600                  6800                 11000
         ac                  1600                  6800                 11000
      dtemp                     0                     0                     0
      noisy                     1                     1                     1
          i            0.00157459            0.00156246           0.000288369
          p            0.00396692             0.0166007           0.000914723

 Resistor: Simple linear resistor
     device                    r1
      model                     R
 resistance                 56000
         ac                 56000
      dtemp                     0
      noisy                     1
          i           0.000300499
          p            0.00505678

 Vsource: Independent voltage source
     device                    v1                   vcc
         dc                 0.001                    20
      acmag                     1                     0
      pulse                     0         -
                                1          
                             1000          
       sine                     0         -
                                1          
                             1000          
        sin                     0         -
                                1          
                             1000          
        exp                     0         -
                                1          
                             1000          
        pwl                     0         -
                                1          
                             1000          
       sffm                     0         -
                                1          
                             1000          
         am                     0         -
                                1          
                             1000          
          i                     0           -0.00186296
          p                    -0             0.0372591

                             amplificador ejercicio
                             AC Analysis  Thu Dec 06 14:35:47  2012
--------------------------------------------------------------------------------
Index   frequency       vm(5)           vp(5)           
--------------------------------------------------------------------------------
0	3.200000e+001	1.948079e+000	-2.05778e+000	
1	3.675835e+001	2.163355e+000	-2.11726e+000	
2	4.222425e+001	2.384308e+000	-2.18065e+000	
3	4.850293e+001	2.605704e+000	-2.24712e+000	
4	5.571524e+001	2.821767e+000	-2.31561e+000	
5	6.400000e+001	3.026804e+000	-2.38486e+000	
6	7.351669e+001	3.215890e+000	-2.45357e+000	
7	8.444851e+001	3.385419e+000	-2.52048e+000	
8	9.700586e+001	3.533403e+000	-2.58447e+000	
9	1.114305e+002	3.659453e+000	-2.64468e+000	
10	1.280000e+002	3.764510e+000	-2.70052e+000	
11	1.470334e+002	3.850445e+000	-2.75166e+000	
12	1.688970e+002	3.919640e+000	-2.79802e+000	
13	1.940117e+002	3.974639e+000	-2.83968e+000	
14	2.228609e+002	4.017897e+000	-2.87685e+000	
15	2.560000e+002	4.051639e+000	-2.90984e+000	
16	2.940668e+002	4.077784e+000	-2.93899e+000	
17	3.377940e+002	4.097939e+000	-2.96466e+000	
18	3.880234e+002	4.113414e+000	-2.98720e+000	
19	4.457219e+002	4.125259e+000	-3.00696e+000	
20	5.120000e+002	4.134305e+000	-3.02425e+000	
21	5.881336e+002	4.141200e+000	-3.03937e+000	
22	6.755881e+002	4.146449e+000	-3.05258e+000	
23	7.760469e+002	4.150440e+000	-3.06410e+000	
24	8.914438e+002	4.153472e+000	-3.07417e+000	
25	1.024000e+003	4.155774e+000	-3.08295e+000	
26	1.176267e+003	4.157522e+000	-3.09061e+000	
27	1.351176e+003	4.158848e+000	-3.09729e+000	
28	1.552094e+003	4.159853e+000	-3.10313e+000	
29	1.782888e+003	4.160616e+000	-3.10824e+000	
30	2.048000e+003	4.161194e+000	-3.11270e+000	
31	2.352534e+003	4.161632e+000	-3.11660e+000	
32	2.702352e+003	4.161964e+000	-3.12003e+000	
33	3.104188e+003	4.162216e+000	-3.12304e+000	
34	3.565775e+003	4.162407e+000	-3.12570e+000	
35	4.096000e+003	4.162551e+000	-3.12805e+000	

                             amplificador ejercicio
                             AC Analysis  Thu Dec 06 14:35:47  2012
--------------------------------------------------------------------------------
Index   frequency       v1#branch                       
--------------------------------------------------------------------------------
0	3.200000e+001	-2.49426e-005,	-4.71114e-005	
1	3.675835e+001	-3.07599e-005,	-5.05785e-005	
2	4.222425e+001	-3.73640e-005,	-5.34853e-005	
3	4.850293e+001	-4.46251e-005,	-5.56109e-005	
4	5.571524e+001	-5.23324e-005,	-5.67746e-005	
5	6.400000e+001	-6.02140e-005,	-5.68703e-005	
6	7.351669e+001	-6.79721e-005,	-5.58892e-005	
7	8.444851e+001	-7.53275e-005,	-5.39217e-005	
8	9.700586e+001	-8.20569e-005,	-5.11380e-005	
9	1.114305e+002	-8.80159e-005,	-4.77548e-005	
10	1.280000e+002	-9.31420e-005,	-4.39987e-005	
11	1.470334e+002	-9.74430e-005,	-4.00772e-005	
12	1.688970e+002	-1.00977e-004,	-3.61608e-005	
13	1.940117e+002	-1.03830e-004,	-3.23770e-005	
14	2.228609e+002	-1.06103e-004,	-2.88115e-005	
15	2.560000e+002	-1.07892e-004,	-2.55152e-005	
16	2.940668e+002	-1.09289e-004,	-2.25119e-005	
17	3.377940e+002	-1.10372e-004,	-1.98059e-005	
18	3.880234e+002	-1.11207e-004,	-1.73886e-005	
19	4.457219e+002	-1.11849e-004,	-1.52436e-005	
20	5.120000e+002	-1.12340e-004,	-1.33501e-005	
21	5.881336e+002	-1.12715e-004,	-1.16855e-005	
22	6.755881e+002	-1.13001e-004,	-1.02271e-005	
23	7.760469e+002	-1.13218e-004,	-8.95323e-006	
24	8.914438e+002	-1.13384e-004,	-7.84340e-006	
25	1.024000e+003	-1.13510e-004,	-6.87909e-006	
26	1.176267e+003	-1.13605e-004,	-6.04357e-006	
27	1.351176e+003	-1.13678e-004,	-5.32199e-006	
28	1.552094e+003	-1.13733e-004,	-4.70127e-006	
29	1.782888e+003	-1.13774e-004,	-4.17000e-006	
30	2.048000e+003	-1.13806e-004,	-3.71830e-006	
31	2.352534e+003	-1.13830e-004,	-3.33773e-006	
32	2.702352e+003	-1.13848e-004,	-3.02110e-006	
33	3.104188e+003	-1.13862e-004,	-2.76242e-006	
34	3.565775e+003	-1.13873e-004,	-2.55679e-006	
35	4.096000e+003	-1.13881e-004,	-2.40028e-006	

                             amplificador ejercicio
                             AC Analysis  Thu Dec 06 14:35:47  2012
--------------------------------------------------------------------------------
Index   frequency       v(2)                            
--------------------------------------------------------------------------------
0	3.200000e+001	1.000000e+000,	0.000000e+000	
1	3.675835e+001	1.000000e+000,	0.000000e+000	
2	4.222425e+001	1.000000e+000,	0.000000e+000	
3	4.850293e+001	1.000000e+000,	0.000000e+000	
4	5.571524e+001	1.000000e+000,	0.000000e+000	
5	6.400000e+001	1.000000e+000,	0.000000e+000	
6	7.351669e+001	1.000000e+000,	0.000000e+000	
7	8.444851e+001	1.000000e+000,	0.000000e+000	
8	9.700586e+001	1.000000e+000,	0.000000e+000	
9	1.114305e+002	1.000000e+000,	0.000000e+000	
10	1.280000e+002	1.000000e+000,	0.000000e+000	
11	1.470334e+002	1.000000e+000,	0.000000e+000	
12	1.688970e+002	1.000000e+000,	0.000000e+000	
13	1.940117e+002	1.000000e+000,	0.000000e+000	
14	2.228609e+002	1.000000e+000,	0.000000e+000	
15	2.560000e+002	1.000000e+000,	0.000000e+000	
16	2.940668e+002	1.000000e+000,	0.000000e+000	
17	3.377940e+002	1.000000e+000,	0.000000e+000	
18	3.880234e+002	1.000000e+000,	0.000000e+000	
19	4.457219e+002	1.000000e+000,	0.000000e+000	
20	5.120000e+002	1.000000e+000,	0.000000e+000	
21	5.881336e+002	1.000000e+000,	0.000000e+000	
22	6.755881e+002	1.000000e+000,	0.000000e+000	
23	7.760469e+002	1.000000e+000,	0.000000e+000	
24	8.914438e+002	1.000000e+000,	0.000000e+000	
25	1.024000e+003	1.000000e+000,	0.000000e+000	
26	1.176267e+003	1.000000e+000,	0.000000e+000	
27	1.351176e+003	1.000000e+000,	0.000000e+000	
28	1.552094e+003	1.000000e+000,	0.000000e+000	
29	1.782888e+003	1.000000e+000,	0.000000e+000	
30	2.048000e+003	1.000000e+000,	0.000000e+000	
31	2.352534e+003	1.000000e+000,	0.000000e+000	
32	2.702352e+003	1.000000e+000,	0.000000e+000	
33	3.104188e+003	1.000000e+000,	0.000000e+000	
34	3.565775e+003	1.000000e+000,	0.000000e+000	
35	4.096000e+003	1.000000e+000,	0.000000e+000	


Total elapsed time: 0.027 seconds.

Total DRAM available = 4086.179688 MB.
DRAM currently available = 1904.175781 MB.
Total ngspice program size = 7.867188 MB.

