


Circuit: generaciￃﾳn de netlist con gramￃﾡtica 

Doing analysis at TEMP = 27.000000 and TNOM = 27.000000


No. of Data Rows : 9

No. of Data Rows : 1

Initial Transient Solution
--------------------------

Node                                   Voltage
----                                   -------
1                                           20
2                                            0
3                                            0
4                                  1.05263e-06
6                                           20
5                                           20
7                                           20
9                                           20
8                                           20
vac1#branch                                  0
v1#branch                         -3.05272e-11

doAnalyses: TRAN:  Timestep too small; time = 2.11622e-08, timestep = 1.74151e-17: trouble with node "3"


run simulation(s) aborted
	Node                                  Voltage
	----                                  -------
	----	-------
	V(8)                             2.000000e+01
	V(9)                             2.000000e+01
	V(7)                             2.000000e+01
	V(5)                             2.000000e+01
	V(6)                             2.000000e+01
	V(4)                             1.052631e-06
	V(3)                             0.000000e+00
	V(2)                             0.000000e+00
	V(1)                             2.000000e+01

	Source	Current
	------	-------

	v1#branch                        -3.05272e-11
	vac1#branch                      0.000000e+00

 BJT models (Bipolar Junction Transistor)
      model                2n2222

       type                   npn
       tnom                    27
         is               1.9e-14
         bf                   150
         nf                     1
        vaf                   100
        ikf                  0.18
        ise                 5e-11
         ne                   2.5
         br                   7.5
         nr                     1
        var                   6.4
        ikr                 0.012
        isc               8.7e-12
         nc                   1.2
         rb                    50
        irb                     0
        rbm                    50
         re                   0.4
         rc                   0.3
        cje               2.6e-11
        vje                  0.75
        mje                  0.33
         tf                 5e-10
        xtf                     0
        vtf                     0
        itf                     0
        ptf                     0
        cjc               1.1e-11
        vjc                  0.75
        mjc                  0.33
       xcjc                     1
         tr                 7e-09
        cjs                     0
        vjs                  0.75
        mjs                     0
        xtb                   1.5
         eg                  1.11
        xti                     3
         fc                   0.5
         kf               3.2e-17
         af                     1
        iss                     0
         ns                     1
       tlev                     0
      tlevc                     0
       tbf1                     0
       tbf2                     0
       tbr1                     0
       tbr2                     0
      tikf1                     0
      tikf2                     0
      tikr1                     0
      tikr2                     0
      tirb1                     0
      tirb2                     0
       tnc1                     0
       tnc2                     0
       tne1                     0
       tne2                     0
       tnf1                     0
       tnf2                     0
       tnr1                     0
       tnr2                     0
       trb1                     0
       trb2                     0
       trc1                     0
       trc2                     0
       tre1                     0
       tre2                     0
       trm1                     0
       trm2                     0
      tvaf1                     0
      tvaf2                     0
      tvar1                     0
      tvar2                     0
        ctc                     0
        cte                     0
        cts                     0
       tvjc                     0
       tvje                     0
       tvjs                     0
      titf1                     0
      titf2                     0
       ttf1                     0
       ttf2                     0
       ttr1                     0
       ttr2                     0
      tmje1                     0
      tmje2                     0
      tmjc1                     0
      tmjc2                     0
      tmjs1                     0
      tmjs2                     0
       tns1                     0
       tns2                     0
        nkf                   0.5

 Capacitor models (Fixed capacitor)
      model                     C

        cap                     0
         cj                     0
       cjsw                     0
       defw                 1e-05
       defl                     0
     narrow                     0
      short                     0
        tc1                     0
        tc2                     0
         di                     0
      thick                     0

 Resistor models (Simple linear resistor)
      model                     R

        rsh                     0
     narrow                     0
      short                     0
        tc1                     0
        tc2                     0
       defw                 1e-05
         kf                     0
         af                     0

 BJT: Bipolar Junction Transistor
     device                    q1
      model                2n2222
         ic          -1.84554e-09
         ib           1.84554e-09
         ie           -2.0017e-11
        vbe           2.38091e-06
        vbc           2.38092e-06
         gm          -3.62134e-22
        gpi               1.3e+06
        gmu                550001
         gx                  0.02
         go           7.34674e-13
        cpi               2.6e-11
        cmu               1.1e-11
        cbx                     0
       csub                     0

 Capacitor: Fixed capacitor
     device                    c6                    c5                    c4
      model                     C                     C                     C
capacitance                   9.6                  0.59               4.8e-11
        cap                   9.6                  0.59               4.8e-11
          c                   9.6                  0.59               4.8e-11
      dtemp                     0                     0                     0
          i                     0                  -128           8.52651e-09
          p                    -0                 -2560          -1.81754e-22

 Capacitor: Fixed capacitor
     device                    c3                    c2                    c1
      model                     C                     C                     C
capacitance                 7e-06                 6e-08               7.6e-11
        cap                 7e-06                 6e-08               7.6e-11
          c                 7e-06                 6e-08               7.6e-11
      dtemp                     0                     0                     0
          i           -0.00124345                     0               2456.14
          p           2.96054e-09                     0               37.3016

 Resistor: Simple linear resistor
     device                   r16                   r15                   r14
      model                     R                     R                     R
 resistance                    96                   970               3.8e+12
         ac                    96                   970               3.8e+12
      dtemp                     0                     0                     0
      noisy                     1                     1                     1
          i          -0.000158199                     0           5.26715e-12
          p           2.40258e-06                     0           1.05423e-10

 Resistor: Simple linear resistor
     device                   r13                   r12                   r11
      model                     R                     R                     R
 resistance                    16               1.8e+10                  9500
         ac                    16               1.8e+10                  9500
      dtemp                     0                     0                     0
      noisy                     1                     1                     1
          i           1.33227e-15          -8.43728e-13          -2.24382e-18
          p            2.8399e-29           1.28138e-14           4.78299e-32

 Resistor: Simple linear resistor
     device                   r10                    r9                    r8
      model                     R                     R                     R
 resistance                   880               8.2e+09                 78000
         ac                   880               8.2e+09                 78000
      dtemp                     0                     0                     0
      noisy                     1                     1                     1
          i           7.75138e-15                     0          -1.94676e-07
          p           5.28738e-26                     0            2.9561e-09

 Resistor: Simple linear resistor
     device                    r7                    r6                    r5
      model                     R                     R                     R
 resistance                  5100                    96                   970
         ac                  5100                    96                   970
      dtemp                     0                     0                     0
      noisy                     1                     1                     1
          i           2.97786e-06          -0.000158199                     0
          p           4.52251e-08           2.40258e-06                     0

 Resistor: Simple linear resistor
     device                    r4                    r3                    r2
      model                     R                     R                     R
 resistance               3.8e+12                   160                100000
         ac               3.8e+12                   160                100000
      dtemp                     0                     0                     0
      noisy                     1                     1                     1
          i           5.26715e-12           1.33227e-16           1.05343e-11
          p           1.05423e-10            2.8399e-30           1.10972e-17

 Resistor: Simple linear resistor
     device                    r1
      model                     R
 resistance                   600
         ac                   600
      dtemp                     0
      noisy                     1
          i          -2.11012e-05
          p           2.67157e-07

 Vsource: Independent voltage source
     device                  vac1                    v1
         dc                     0                    20
      acmag                 0.001                     0
      pulse                     0         -
                              1.9          
                            10000          
       sine                     0         -
                              1.9          
                            10000          
        sin                     0         -
                              1.9          
                            10000          
        exp                     0         -
                              1.9          
                            10000          
        pwl                     0         -
                              1.9          
                            10000          
       sffm                     0         -
                              1.9          
                            10000          
         am                     0         -
                              1.9          
                            10000          
    trnoise                     0         -
                              1.9          
                            10000          
   trrandom                     0         -
                              1.9          
                            10000          
          i           2.11012e-05           0.000316593
          p          -5.33092e-08           -0.00633185

                     generaciￃﾳn de netlist con gramￃﾡtica 
                     AC Analysis  Sat Nov 30 00:44:43  2013
--------------------------------------------------------------------------------
Index   frequency       vm(4)           vp(4)           
--------------------------------------------------------------------------------
0	1.000000e+00	3.862772e-12	-3.13422e-04	
1	1.000000e+01	3.862772e-12	-3.15505e-05	
2	1.000000e+02	3.862772e-12	-5.23684e-06Error: wavelength longer than time span
No transient data available for fourier analysis	
3	1.000000e+03	3.862772e-12	-2.13416e-05	
4	1.000000e+04	3.862772e-12	-2.10307e-04	
5	1.000000e+05	3.862763e-12	-2.10282e-03	
6	1.000000e+06	3.861918e-12	-2.10252e-02	
7	1.000000e+07	3.780109e-12	-2.07251e-01	
8	1.000000e+08	1.658920e-12	-1.12690e+00	

                     generaciￃﾳn de netlist con gramￃﾡtica 
                     AC Analysis  Sat Nov 30 00:44:43  2013
--------------------------------------------------------------------------------
Index   frequency       vac1#branch                     
--------------------------------------------------------------------------------
0	1.000000e+00	-1.54435e-06,	-3.87617e-11	
1	1.000000e+01	-1.54435e-06,	-3.90164e-12	
2	1.000000e+02	-1.54435e-06,	-6.44806e-13	
3	1.000000e+03	-1.54435e-06,	-2.61095e-12	
4	1.000000e+04	-1.54435e-06,	-2.57250e-11	
5	1.000000e+05	-1.54435e-06,	-2.57219e-10	
6	1.000000e+06	-1.54440e-06,	-2.57107e-09	
7	1.000000e+07	-1.54952e-06,	-2.46315e-08	
8	1.000000e+08	-1.64411e-06,	-4.74412e-08	

                     generaciￃﾳn de netlist con gramￃﾡtica 
                     AC Analysis  Sat Nov 30 00:44:43  2013
--------------------------------------------------------------------------------
Index   frequency       v(3)                            
--------------------------------------------------------------------------------
0	1.000000e+00	7.339267e-05,	-2.32570e-08	
1	1.000000e+01	7.339267e-05,	-2.34098e-09	
2	1.000000e+02	7.339267e-05,	-3.86884e-10	
3	1.000000e+03	7.339267e-05,	-1.56657e-09	
4	1.000000e+04	7.339266e-05,	-1.54350e-08	
5	1.000000e+05	7.339234e-05,	-1.54331e-07	
6	1.000000e+06	7.336023e-05,	-1.54264e-06	
7	1.000000e+07	7.028510e-05,	-1.47789e-05	
8	1.000000e+08	1.353647e-05,	-2.84647e-05	

elapsed time since last call: 0.038 seconds.

Total elapsed time: 0.038 seconds.

Total DRAM available = 3788.500000 MB.
DRAM currently available = 315.402344 MB.
Total ngspice program size = 21.525391 MB.
Resident set size = 983.000 kB.
Shared ngspice pages = 721.000 kB.
Text (code) pages = 1.331055 MB.
Stack = 0 bytes.
Library pages = 6.017578 MB.

