
Circuit: testexpresion: list (three_vcc(end)(end)(c 3.2e-3 (c 2.4e-11 (parallel(end)(c 3.5e-8 (c 1.8e-9 (r 7.5e5 (r 2.2e4 (end)))))))))(r 6.4e7 (nop(nop(nop(c 9.2e-9 (c 8.8e-11 (parallel(end)(r 6.8e8 (nop(c 5.8e-3 (c 7.3e-11 (parallel(end)(r 6.4e3 (end))))))))))))))(end)(c 1.5e-7 (end))

Doing analysis at TEMP = 27.000000 and TNOM = 27.000000


No. of Data Rows : 9

No. of Data Rows : 1

Initial Transient Solution
--------------------------

Node                                   Voltage
----                                   -------
1                                           20
2                                            0
3                                     0.530806
4                                            0
6                                      19.8896
vac1#branch                        0.000884676
v1#branch                         -0.000902217


No. of Data Rows : 77
	Node                                  Voltage
	----                                  -------
	----	-------
	V(6)                             1.988958e+01
	V(4)                             0.000000e+00
	V(3)                             5.308057e-01
	V(2)                             0.000000e+00
	V(1)                             2.000000e+01

	Source	Current
	------	-------

	v1#branch                        -9.02217e-04
	vac1#branch                      8.846762e-04

 BJT models (Bipolar Junction Transistor)
      model                2n2222

       type                   npn
       tnom                    27
         is               1.9e-14
         bf                   150
         nf                     1
        vaf                   100
        ikf                  0.18
        ise                 5e-11
         ne                   2.5
         br                   7.5
         nr                     1
        var                   6.4
        ikr                 0.012
        isc               8.7e-12
         nc                   1.2
         rb                    50
        irb                     0
        rbm                    50
         re                   0.4
         rc                   0.3
        cje               2.6e-11
        vje                  0.75
        mje                  0.33
         tf                 5e-10
        xtf                     0
        vtf                     0
        itf                     0
        ptf                     0
        cjc               1.1e-11
        vjc                  0.75
        mjc                  0.33
       xcjc                     1
         tr                 7e-09
        cjs                     0
        vjs                  0.75
        mjs                     0
        xtb                   1.5
         eg                  1.11
        xti                     3
         fc                   0.5
         kf               3.2e-17
         af                     1
        iss                     0
         ns                     1
       tlev                     0
      tlevc                     0
       tbf1                     0
       tbf2                     0
       tbr1                     0
       tbr2                     0
      tikf1                     0
      tikf2                     0
      tikr1                     0
      tikr2                     0
      tirb1                     0
      tirb2                     0
       tnc1                     0
       tnc2                     0
       tne1                     0
       tne2                     0
       tnf1                     0
       tnf2                     0
       tnr1                     0
       tnr2                     0
       trb1                     0
       trb2                     0
       trc1                     0
       trc2                     0
       tre1                     0
       tre2                     0
       trm1                     0
       trm2                     0
      tvaf1                     0
      tvaf2                     0
      tvar1                     0
      tvar2                     0
        ctc                     0
        cte                     0
        cts                     0
       tvjc                     0
       tvje                     0
       tvjs                     0
      titf1                     0
      titf2                     0
       ttf1                     0
       ttf2                     0
       ttr1                     0
       ttr2                     0
      tmje1                     0
      tmje2                     0
      tmjc1                     0
      tmjc2                     0
      tmjs1                     0
      tmjs2                     0
       tns1                     0
       tns2                     0
        nkf                   0.5

 Capacitor models (Fixed capacitor)
      model                     C

        cap                     0
         cj                     0
       cjsw                     0
       defw                 1e-05
       defl                     0
     narrow                     0
      short                     0
        tc1                     0
        tc2                     0
         di                     0
      thick                     0

 Resistor models (Simple linear resistor)
      model                     R

        rsh                     0
     narrow                     0
      short                     0
        tc1                     0
        tc2                     0
       defw                 1e-05
         kf                     0
         af                     0

 BJT: Bipolar Junction Transistor
     device                    q1
      model                2n2222
         ic           4.56623e-06
         ib           7.46773e-06
         ie           -1.2034e-05
        vbe              0.527942
        vbc               -19.362
         gm           0.000595566
        gpi           3.67292e-05
        gmu           3.02414e-06
         gx                  0.02
         go           1.39182e-07
        cpi           3.73789e-11
        cmu           3.71554e-12
        cbx                     0
       csub                     0

 Capacitor: Fixed capacitor
     device                    c9                    c3                    c1
      model                     C                     C                     C
capacitance               7.3e-11               2.4e-11               1.5e-07
        cap               7.3e-11               2.4e-11               1.5e-07
          c               7.3e-11               2.4e-11               1.5e-07
      dtemp                     0                     0                     0
          i          -3.00894e-06           -2.9256e-06           5.98607e-06
          p          -3.31002e-07           5.69664e-05            0.00011548

 Capacitor: Fixed capacitor
     device                    c7
      model                     C
capacitance               8.8e-11
        cap               8.8e-11
          c               8.8e-11
      dtemp                     0
          i          -3.62722e-06
          p          -3.99017e-07

 Resistor: Simple linear resistor
     device                    r7                    r5                    r2
      model                     R                     R                     R
 resistance                  6400                 22000                100000
         ac                  6400                 22000                100000
      dtemp                     0                     0                     0
      noisy                     1                     1                     1
          i           1.71885e-05          -0.000885076           5.98607e-06
          p           1.89084e-06             0.0172339            3.5833e-06

 Resistor: Simple linear resistor
     device                    r1
      model                     R
 resistance                   600
         ac                   600
      dtemp                     0
      noisy                     1
          i          -0.000880534
          p           0.000465204

 Vsource: Independent voltage source
     device                  vac1                    v1
         dc                     0                    20
      acmag                 0.001                     0
      pulse                     0         -
                                2          
                             1000          
       sine                     0         -
                                2          
                             1000          
        sin                     0         -
                                2          
                             1000          
        exp                     0         -
                                2          
                             1000          
        pwl                     0         -
                                2          
                             1000          
       sffm                     0         -
                                2          
                             1000          
         am                     0         -
                                2          
                             1000          
    trnoise                     0         -
                                2          
                             1000          
   trrandom                     0         -
                                2          
                             1000          
          i           0.000880534          -0.000898554
          p           4.31323e-19             0.0179711

testexpresion: list (three_vcc(end)(end)(c 3.2e-3 (c 2.4e-11 (parallel(end)(c 3.5e-8 (c 1.8e-9 (r 7.5e5 (r 2.2e4 (end)))))))))(r 6.4e7 (nop(nop(nop(c 9.2e-9 (c 8.8e-11 (parallel(end)(r 6.8e8 (nop(c 5.8e-3 (c 7.3e-11 (parallel(end)(r 6.4e3 (end))))))))))))))(end)(c 1.5e-7 (end))
AC Analysis  Tue Apr 23 18:38:45  2013
--------------------------------------------------------------------------------
Index   frequency       vm(4)           vp(4)           
--------------------------------------------------------------------------------
0	1.000000e+00	3.860302e-04	-1.67074e+00	
1	1.000000e+01	2.739578e-03	-2.35763e+00	
2	1.000000e+02	3.849959e-03	-3.04285e+00	
3	1.000000e+03	3.868788e-03	-3.13818e+00	
4	1.000000e+04	3.861435e-03	3.077026e+00	
5	1.000000e+05	3.275438e-03	2.552509e+00	
6	1.000000e+06	5.913755e-04	1.449694e+00	
7	1.000000e+07	2.474796e-05	2.074103e-02	
8	1.000000e+08	8.389223e-07	-1.67740e+00	

testexpresion: list (three_vcc(end)(end)(c 3.2e-3 (c 2.4e-11 (parallel(end)(c 3.5e-8 (c 1.8e-9 (r 7.5e5 (r 2.2e4 (end)))))))))(r 6.4e7 (nop(nop(nop(c 9.2e-9 (c 8.8e-11 (parallel(end)(r 6.8e8 (nop(c 5.8e-3 (c 7.3e-11 (parallel(end)(r 6.4e3 (end))))))))))))))(end)(c 1.5e-7 (end))
AC Analysis  Tue Apr 23 18:38:45  2013
--------------------------------------------------------------------------------
Index   frequency       vac1#branch                     
--------------------------------------------------------------------------------
0	1.000000e+00	-5.07042e-08,	-4.78016e-13	
1	1.000000e+01	-5.07042e-08,	-4.75282e-12	
2	1.000000e+02	-5.07043e-08,	-4.72562e-11	
3	1.000000e+03	-5.07050e-08,	-4.72504e-10	
4	1.000000e+04	-5.07732e-08,	-4.72130e-09	
5	1.000000e+05	-5.59231e-08,	-4.45273e-08	
6	1.000000e+06	-1.52263e-07,	-3.58235e-07	
7	1.000000e+07	-1.38851e-06,	-5.45066e-07	
8	1.000000e+08	-1.61800e-06,	-8.45892e-08	

testexpresion: list (three_vcc(end)(end)(c 3.2e-3 (c 2.4e-11 (parallel(end)(c 3.5e-8 (c 1.8e-9 (r 7.5e5 (r 2.2e4 (end)))))))))(r 6.4e7 (nop(nop(nop(c 9.2e-9 (c 8.8e-11 (parallel(end)(r 6.8e8 (nop(c 5.8e-3 (c 7.3e-11 (parallel(end)(r 6.4e3 (end))))))))))))))(end)(c 1.5e-7 (end))
AC Analysis  Tue Apr 23 18:38:45  2013
--------------------------------------------------------------------------------
Index   frequency       v(3)                            
--------------------------------------------------------------------------------
0	1.000000e+00	9.695775e-04,	-2.86810e-10	
1	1.000000e+01	9.695775e-04,	-2.85169e-09	
2	1.000000e+02	9.695774e-04,	-2.83537e-08	
3	1.000000e+03	9.695770e-04,	-2.83503e-07	
4	1.000000e+04	9.695361e-04,	-2.83278e-06	
5	1.000000e+05	9.664461e-04,	-2.67164e-05	
6	1.000000e+06	9.086419e-04,	-2.14941e-04	
7	1.000000e+07	1.668960e-04,	-3.27040e-04	
8	1.000000e+08	2.919945e-05,	-5.07535e-05	

Fourier analysis for v(4):
  No. Harmonics: 10, THD: 42.4534 %, Gridsize: 200, Interpolation Degree: 1

Harmonic Frequency   Magnitude   Phase       Norm. Mag   Norm. Phase
-------- ---------   ---------   -----       ---------   -----------
 0       0           -8.9726     0           0           0          
 1       1000        12.7982     -179.64     1           0          
 2       2000        0.866344    96.655      0.0676929   276.297    
 3       3000        4.1631      179.433     0.325289    359.075    
 4       4000        0.843758    93.4052     0.0659281   273.047    
 5       5000        2.38259     178.751     0.186167    358.393    
 6       6000        0.81923     92.2621     0.0640116   271.904    
 7       7000        1.58421     177.963     0.123785    357.605    
 8       8000        0.788375    91.5793     0.0616007   271.221    
 9       9000        1.11675     176.933     0.0872587   356.575    



elapsed time since last call: 0.047 seconds.

Total elapsed time: 0.047 seconds.

Total DRAM available = 1000.773438 MB.
DRAM currently available = 69.605469 MB.
Total ngspice program size = 5.581055 MB.
Resident set size = 807.000 kB.
Shared ngspice pages = 603.000 kB.
Text (code) pages = 1.102539 MB.
Stack = 0 bytes.
Library pages = 3.095703 MB.

